T56A8 000:004.784   SEGGER J-Link V7.82c Log File
T56A8 000:005.005   DLL Compiled: Nov 16 2022 16:56:50
T56A8 000:005.008   Logging started @ 2022-11-29 02:38
T56A8 000:005.011 - 5.013ms
T56A8 000:005.132 JLINK_SetWarnOutHandler(...)
T56A8 000:005.243 - 0.112ms
T56A8 000:005.247 JLINK_OpenEx(...)
T56A8 000:007.460   Firmware: J-Link V9 compiled May  7 2021 16:26:12
T56A8 000:007.702   Firmware: J-Link V9 compiled May  7 2021 16:26:12
T56A8 000:008.389   Decompressing FW timestamp took 359 us
T56A8 000:014.002   Hardware: V9.40
T56A8 000:014.011   S/N: 59400616
T56A8 000:014.015   OEM: SEGGER
T56A8 000:014.020   Feature(s): RDI, FlashBP, FlashDL, JFlash, GDB
T56A8 000:015.124   TELNET listener socket opened on port 19021
T56A8 000:015.237   WEBSRV WEBSRV_Init(): Starting webserver thread(s)
T56A8 000:015.353   WEBSRV Webserver running on local port 19080
T56A8 000:021.986 - 16.747ms returns "O.K."
T56A8 000:022.127 JLINK_GetEmuCaps()
T56A8 000:022.131 - 0.005ms returns 0xB9FF7BBF
T56A8 000:022.140 JLINK_TIF_GetAvailable(...)
T56A8 000:022.296 - 0.158ms
T56A8 000:022.301 JLINK_SetErrorOutHandler(...)
T56A8 000:022.304 - 0.005ms
T56A8 000:022.519 JLINK_ExecCommand("ProjectFile = "C:\Users\11077\Desktop\dgm_dev_20221126\Firmware_app\MDK-ARM\JLinkSettings.ini"", ...). 
T56A8 000:043.853   Device "GD32E103CB" selected.
T56A8 000:044.022 - 21.507ms returns 0x00
T56A8 000:044.722 JLINK_ExecCommand("Device = GD32C103CB", ...). 
T56A8 000:045.432   Device "GD32E103CB" selected.
T56A8 000:045.579 - 0.850ms returns 0x00
T56A8 000:045.588 JLINK_ExecCommand("DisableConnectionTimeout", ...). 
T56A8 000:045.593 - 0.002ms returns 0x01
T56A8 000:045.597 JLINK_GetHardwareVersion()
T56A8 000:045.601 - 0.004ms returns 94000
T56A8 000:045.605 JLINK_GetDLLVersion()
T56A8 000:045.611 - 0.007ms returns 78203
T56A8 000:045.614 JLINK_GetOEMString(...)
T56A8 000:045.620 JLINK_GetFirmwareString(...)
T56A8 000:045.623 - 0.004ms
T56A8 000:048.926 JLINK_GetDLLVersion()
T56A8 000:048.937 - 0.012ms returns 78203
T56A8 000:048.941 JLINK_GetCompileDateTime()
T56A8 000:048.944 - 0.004ms
T56A8 000:049.480 JLINK_GetFirmwareString(...)
T56A8 000:049.488 - 0.010ms
T56A8 000:050.033 JLINK_GetHardwareVersion()
T56A8 000:050.040 - 0.009ms returns 94000
T56A8 000:050.618 JLINK_GetSN()
T56A8 000:050.626 - 0.009ms returns 59400616
T56A8 000:051.154 JLINK_GetOEMString(...)
T56A8 000:052.312 JLINK_TIF_Select(JLINKARM_TIF_SWD)
T56A8 000:052.749 - 0.440ms returns 0x00
T56A8 000:052.755 JLINK_HasError()
T56A8 000:052.897 JLINK_SetSpeed(10000)
T56A8 000:052.952 - 0.057ms
T56A8 000:052.957 JLINK_GetId()
T56A8 000:054.121   Found SW-DP with ID 0x2BA01477
T56A8 000:056.830   DPIDR: 0x2BA01477
T56A8 000:057.348   CoreSight SoC-400 or earlier
T56A8 000:057.842   Scanning AP map to find all available APs
T56A8 000:058.784   AP[1]: Stopped AP scan as end of AP map has been reached
T56A8 000:059.302   AP[0]: AHB-AP (IDR: 0x24770011)
T56A8 000:059.795   Iterating through AP map to find AHB-AP to use
T56A8 000:060.926   AP[0]: Core found
T56A8 000:061.478   AP[0]: AHB-AP ROM base: 0xE00FF000
T56A8 000:062.561   CPUID register: 0x410FC241. Implementer code: 0x41 (ARM)
T56A8 000:063.081   Found Cortex-M4 r0p1, Little endian.
T56A8 000:063.306   -- Max. mem block: 0x00010E40
T56A8 000:063.512   CPU_ReadMem(4 bytes @ 0xE000EDF0)
T56A8 000:063.711   CPU_WriteMem(4 bytes @ 0xE000EDF0)
T56A8 000:063.909   CPU_ReadMem(4 bytes @ 0xE0002000)
T56A8 000:064.641   FPUnit: 6 code (BP) slots and 2 literal slots
T56A8 000:064.651   CPU_ReadMem(4 bytes @ 0xE000EDFC)
T56A8 000:064.833   CPU_WriteMem(4 bytes @ 0xE000EDFC)
T56A8 000:065.033   CPU_ReadMem(4 bytes @ 0xE0001000)
T56A8 000:065.234   CPU_WriteMem(4 bytes @ 0xE0001000)
T56A8 000:065.433   CPU_ReadMem(4 bytes @ 0xE000ED88)
T56A8 000:065.708   CPU_WriteMem(4 bytes @ 0xE000ED88)
T56A8 000:065.906   CPU_ReadMem(4 bytes @ 0xE000ED88)
T56A8 000:066.109   CPU_WriteMem(4 bytes @ 0xE000ED88)
T56A8 000:066.872   CoreSight components:
T56A8 000:067.435   ROMTbl[0] @ E00FF000
T56A8 000:067.475   CPU_ReadMem(64 bytes @ 0xE00FF000)
T56A8 000:067.936   CPU_ReadMem(32 bytes @ 0xE000EFE0)
T56A8 000:068.798   [0][0]: E000E000 CID B105E00D PID 000BB00C SCS-M7
T56A8 000:068.808   CPU_ReadMem(32 bytes @ 0xE0001FE0)
T56A8 000:069.610   [0][1]: E0001000 CID B105E00D PID 003BB002 DWT
T56A8 000:069.619   CPU_ReadMem(32 bytes @ 0xE0002FE0)
T56A8 000:070.443   [0][2]: E0002000 CID B105E00D PID 002BB003 FPB
T56A8 000:070.452   CPU_ReadMem(32 bytes @ 0xE0000FE0)
T56A8 000:071.375   [0][3]: E0000000 CID B105E00D PID 003BB001 ITM
T56A8 000:071.386   CPU_ReadMem(32 bytes @ 0xE0040FE0)
T56A8 000:072.237   [0][4]: E0040000 CID B105900D PID 000BB9A1 TPIU
T56A8 000:072.247   CPU_ReadMem(32 bytes @ 0xE0041FE0)
T56A8 000:073.106   [0][5]: E0041000 CID 00000000 PID 00000000 ???
T56A8 000:073.256 - 20.301ms returns 0x2BA01477
T56A8 000:073.264 JLINK_GetDLLVersion()
T56A8 000:073.267 - 0.004ms returns 78203
T56A8 000:073.291 JLINK_CORE_GetFound()
T56A8 000:073.294 - 0.004ms returns 0xE0000FF
T56A8 000:073.298 JLINK_GetDebugInfo(0x100 = JLINKARM_ROM_TABLE_ADDR_INDEX)
T56A8 000:073.303   Value=0xE00FF000
T56A8 000:073.308 - 0.010ms returns 0
T56A8 000:073.856 JLINK_GetDebugInfo(0x100 = JLINKARM_ROM_TABLE_ADDR_INDEX)
T56A8 000:073.864   Value=0xE00FF000
T56A8 000:073.869 - 0.013ms returns 0
T56A8 000:073.872 JLINK_GetDebugInfo(0x101 = JLINKARM_DEBUG_INFO_ETM_ADDR_INDEX)
T56A8 000:073.876   Value=0x00000000
T56A8 000:073.880 - 0.009ms returns 0
T56A8 000:073.886 JLINK_ReadMemEx(0xE0041FF0, 0x10 Bytes, Flags = 0x02000004)
T56A8 000:073.906   CPU_ReadMem(16 bytes @ 0xE0041FF0)
T56A8 000:074.145   Data:  00 00 00 00 00 00 00 00 00 00 00 00 00 00 00 00
T56A8 000:074.149 - 0.264ms returns 16 (0x10)
T56A8 000:074.154 JLINK_GetDebugInfo(0x102 = JLINKARM_DEBUG_INFO_MTB_ADDR_INDEX)
T56A8 000:074.157   Value=0x00000000
T56A8 000:074.162 - 0.009ms returns 0
T56A8 000:074.165 JLINK_GetDebugInfo(0x103 = JLINKARM_DEBUG_INFO_TPIU_ADDR_INDEX)
T56A8 000:074.168   Value=0xE0040000
T56A8 000:074.173 - 0.008ms returns 0
T56A8 000:074.176 JLINK_GetDebugInfo(0x104 = JLINKARM_DEBUG_INFO_ITM_ADDR_INDEX)
T56A8 000:074.179   Value=0xE0000000
T56A8 000:074.183 - 0.008ms returns 0
T56A8 000:074.187 JLINK_GetDebugInfo(0x105 = JLINKARM_DEBUG_INFO_DWT_ADDR_INDEX)
T56A8 000:074.190   Value=0xE0001000
T56A8 000:074.194 - 0.008ms returns 0
T56A8 000:074.198 JLINK_GetDebugInfo(0x106 = JLINKARM_DEBUG_INFO_FPB_ADDR_INDEX)
T56A8 000:074.201   Value=0xE0002000
T56A8 000:074.205 - 0.008ms returns 0
T56A8 000:074.209 JLINK_GetDebugInfo(0x107 = JLINKARM_DEBUG_INFO_NVIC_ADDR_INDEX)
T56A8 000:074.212   Value=0xE000E000
T56A8 000:074.216 - 0.008ms returns 0
T56A8 000:074.220 JLINK_GetDebugInfo(0x10C = JLINKARM_DEBUG_INFO_DBG_ADDR_INDEX)
T56A8 000:074.223   Value=0xE000EDF0
T56A8 000:074.227 - 0.008ms returns 0
T56A8 000:074.230 JLINK_GetDebugInfo(0x01 = Unknown)
T56A8 000:074.235   Value=0x00000001
T56A8 000:074.239 - 0.010ms returns 0
T56A8 000:074.243 JLINK_ReadMemU32(0xE000ED00, 0x1 Items)
T56A8 000:074.248   CPU_ReadMem(4 bytes @ 0xE000ED00)
T56A8 000:074.430   Data:  41 C2 0F 41
T56A8 000:074.435   Debug reg: CPUID
T56A8 000:074.439 - 0.197ms returns 1 (0x1)
T56A8 000:074.443 JLINK_GetDebugInfo(0x10F = JLINKARM_DEBUG_INFO_HAS_CORTEX_M_SECURITY_EXT_INDEX)
T56A8 000:074.446   Value=0x00000000
T56A8 000:074.451 - 0.008ms returns 0
T56A8 000:074.455 JLINK_HasError()
T56A8 000:074.459 JLINK_SetResetType(JLINKARM_CM3_RESET_TYPE_NORMAL)
T56A8 000:074.462 - 0.004ms returns JLINKARM_CM3_RESET_TYPE_NORMAL
T56A8 000:074.465 JLINK_Reset()
T56A8 000:074.474   CPU is running
T56A8 000:074.479   CPU_WriteMem(4 bytes @ 0xE000EDF0)
T56A8 000:074.685   CPU is running
T56A8 000:074.690   CPU_WriteMem(4 bytes @ 0xE000EDFC)
T56A8 000:075.426   Reset: Halt core after reset via DEMCR.VC_CORERESET.
T56A8 000:076.257   Reset: Reset device via AIRCR.SYSRESETREQ.
T56A8 000:076.267   CPU is running
T56A8 000:076.272   CPU_WriteMem(4 bytes @ 0xE000ED0C)
T56A8 000:129.811   CPU_ReadMem(4 bytes @ 0xE000EDF0)
T56A8 000:130.104   CPU_ReadMem(4 bytes @ 0xE000EDF0)
T56A8 000:130.377   CPU is running
T56A8 000:130.403   CPU_WriteMem(4 bytes @ 0xE000EDF0)
T56A8 000:130.704   CPU is running
T56A8 000:130.728   CPU_WriteMem(4 bytes @ 0xE000EDFC)
T56A8 000:137.062   CPU_ReadMem(4 bytes @ 0xE000EDF0)
T56A8 000:140.241   CPU_WriteMem(4 bytes @ 0xE0002000)
T56A8 000:140.643   CPU_ReadMem(4 bytes @ 0xE000EDFC)
T56A8 000:141.034   CPU_ReadMem(4 bytes @ 0xE0001000)
T56A8 000:141.662 - 67.235ms
T56A8 000:141.733 JLINK_Halt()
T56A8 000:141.751 - 0.025ms returns 0x00
T56A8 000:141.772 JLINK_ReadMemU32(0xE000EDF0, 0x1 Items)
T56A8 000:141.809   CPU_ReadMem(4 bytes @ 0xE000EDF0)
T56A8 000:142.121   Data:  03 00 03 00
T56A8 000:142.149   Debug reg: DHCSR
T56A8 000:142.169 - 0.404ms returns 1 (0x1)
T56A8 000:142.259 JLINK_WriteU32_64(0xE000EDF0, 0xA05F0003)
T56A8 000:142.275   Debug reg: DHCSR
T56A8 000:142.914   CPU_WriteMem(4 bytes @ 0xE000EDF0)
T56A8 000:143.210 - 0.979ms returns 0 (0x00000000)
T56A8 000:143.254 JLINK_WriteU32_64(0xE000EDFC, 0x01000000)
T56A8 000:143.269   Debug reg: DEMCR
T56A8 000:143.303   CPU_WriteMem(4 bytes @ 0xE000EDFC)
T56A8 000:143.572 - 0.325ms returns 0 (0x00000000)
T56A8 000:150.679 JLINK_GetHWStatus(...)
T56A8 000:150.816 - 0.149ms returns 0
T56A8 000:153.332 JLINK_GetNumBPUnits(Type = 0xFFFFFF00)
T56A8 000:153.344 - 0.014ms returns 0x06
T56A8 000:153.349 JLINK_GetNumBPUnits(Type = 0xF0)
T56A8 000:153.354 - 0.006ms returns 0x2000
T56A8 000:153.358 JLINK_GetNumWPUnits()
T56A8 000:153.362 - 0.005ms returns 4
T56A8 000:154.796 JLINK_GetSpeed()
T56A8 000:154.803 - 0.008ms returns 6000
T56A8 000:156.011 JLINK_ReadMemU32(0xE000E004, 0x1 Items)
T56A8 000:156.026   CPU_ReadMem(4 bytes @ 0xE000E004)
T56A8 000:156.236   Data:  02 00 00 00
T56A8 000:156.245 - 0.235ms returns 1 (0x1)
T56A8 000:156.251 JLINK_ReadMemU32(0xE000E004, 0x1 Items)
T56A8 000:156.257   CPU_ReadMem(4 bytes @ 0xE000E004)
T56A8 000:156.455   Data:  02 00 00 00
T56A8 000:156.460 - 0.210ms returns 1 (0x1)
T56A8 000:156.464 JLINK_WriteMemEx(0xE0001000, 0x0000001C Bytes, Flags = 0x02000004)
T56A8 000:156.467   Data:  01 00 00 00 00 00 00 00 00 00 00 00 00 00 00 00 ...
T56A8 000:156.476   CPU_WriteMem(28 bytes @ 0xE0001000)
T56A8 000:156.781 - 0.319ms returns 0x1C
T56A8 000:156.789 JLINK_Halt()
T56A8 000:156.792 - 0.004ms returns 0x00
T56A8 000:156.796 JLINK_IsHalted()
T56A8 000:156.799 - 0.004ms returns TRUE
T56A8 000:160.669 JLINK_WriteMem(0x20000000, 0x13C Bytes, ...)
T56A8 000:160.678   Data:  00 BE 0A E0 0D 78 2D 06 68 40 08 24 40 00 00 D3 ...
T56A8 000:160.836   CPU_WriteMem(316 bytes @ 0x20000000)
T56A8 000:162.162 - 1.495ms returns 0x13C
T56A8 000:162.180 JLINK_HasError()
T56A8 000:162.185 JLINK_WriteReg(R0, 0x08000000)
T56A8 000:162.193 - 0.009ms returns 0
T56A8 000:162.196 JLINK_WriteReg(R1, 0x007A1200)
T56A8 000:162.199 - 0.004ms returns 0
T56A8 000:162.202 JLINK_WriteReg(R2, 0x00000001)
T56A8 000:162.205 - 0.004ms returns 0
T56A8 000:162.209 JLINK_WriteReg(R3, 0x00000000)
T56A8 000:162.212 - 0.004ms returns 0
T56A8 000:162.215 JLINK_WriteReg(R4, 0x00000000)
T56A8 000:162.218 - 0.004ms returns 0
T56A8 000:162.221 JLINK_WriteReg(R5, 0x00000000)
T56A8 000:162.224 - 0.004ms returns 0
T56A8 000:162.227 JLINK_WriteReg(R6, 0x00000000)
T56A8 000:162.230 - 0.004ms returns 0
T56A8 000:162.233 JLINK_WriteReg(R7, 0x00000000)
T56A8 000:162.236 - 0.004ms returns 0
T56A8 000:162.240 JLINK_WriteReg(R8, 0x00000000)
T56A8 000:162.368 - 0.130ms returns 0
T56A8 000:162.372 JLINK_WriteReg(R9, 0x20000134)
T56A8 000:162.375 - 0.004ms returns 0
T56A8 000:162.378 JLINK_WriteReg(R10, 0x00000000)
T56A8 000:162.381 - 0.004ms returns 0
T56A8 000:162.384 JLINK_WriteReg(R11, 0x00000000)
T56A8 000:162.387 - 0.004ms returns 0
T56A8 000:162.391 JLINK_WriteReg(R12, 0x00000000)
T56A8 000:162.393 - 0.004ms returns 0
T56A8 000:162.397 JLINK_WriteReg(R13 (SP), 0x20001000)
T56A8 000:162.400 - 0.005ms returns 0
T56A8 000:162.404 JLINK_WriteReg(R14, 0x20000001)
T56A8 000:162.407 - 0.004ms returns 0
T56A8 000:162.410 JLINK_WriteReg(R15 (PC), 0x20000038)
T56A8 000:162.417 - 0.008ms returns 0
T56A8 000:162.420 JLINK_WriteReg(XPSR, 0x01000000)
T56A8 000:162.423 - 0.004ms returns 0
T56A8 000:162.426 JLINK_WriteReg(MSP, 0x20001000)
T56A8 000:162.429 - 0.004ms returns 0
T56A8 000:162.433 JLINK_WriteReg(PSP, 0x20001000)
T56A8 000:162.435 - 0.004ms returns 0
T56A8 000:162.439 JLINK_WriteReg(CFBP, 0x00000000)
T56A8 000:162.442 - 0.004ms returns 0
T56A8 000:162.445 JLINK_SetBPEx(Addr = 0x20000000, Type = 0xFFFFFFF2)
T56A8 000:162.452   CPU_ReadMem(2 bytes @ 0x20000000)
T56A8 000:162.688 - 0.244ms returns 0x00000001
T56A8 000:162.692 JLINK_Go()
T56A8 000:162.696   CPU_WriteMem(2 bytes @ 0x20000000)
T56A8 000:162.890   CPU_ReadMem(4 bytes @ 0xE0001000)
T56A8 000:163.084   CPU_WriteMem(4 bytes @ 0xE0002008)
T56A8 000:163.089   CPU_WriteMem(4 bytes @ 0xE000200C)
T56A8 000:163.093   CPU_WriteMem(4 bytes @ 0xE0002010)
T56A8 000:163.097   CPU_WriteMem(4 bytes @ 0xE0002014)
T56A8 000:163.102   CPU_WriteMem(4 bytes @ 0xE0002018)
T56A8 000:163.106   CPU_WriteMem(4 bytes @ 0xE000201C)
T56A8 000:164.021   CPU_WriteMem(4 bytes @ 0xE0001004)
T56A8 000:165.978 - 3.290ms
T56A8 000:165.986 JLINK_IsHalted()
T56A8 000:167.716   CPU_ReadMem(2 bytes @ 0x20000000)
T56A8 000:167.908 - 1.924ms returns TRUE
T56A8 000:167.914 JLINK_ReadReg(R15 (PC))
T56A8 000:167.918 - 0.006ms returns 0x20000000
T56A8 000:167.922 JLINK_ClrBPEx(BPHandle = 0x00000001)
T56A8 000:167.926 - 0.005ms returns 0x00
T56A8 000:167.930 JLINK_ReadReg(R0)
T56A8 000:167.933 - 0.005ms returns 0x00000000
T56A8 000:168.295 JLINK_HasError()
T56A8 000:168.303 JLINK_WriteReg(R0, 0x08000000)
T56A8 000:168.307 - 0.006ms returns 0
T56A8 000:168.311 JLINK_WriteReg(R1, 0x007A1200)
T56A8 000:168.315 - 0.005ms returns 0
T56A8 000:168.319 JLINK_WriteReg(R2, 0x00000001)
T56A8 000:168.322 - 0.004ms returns 0
T56A8 000:168.326 JLINK_WriteReg(R3, 0x00000000)
T56A8 000:168.330 - 0.005ms returns 0
T56A8 000:168.334 JLINK_WriteReg(R4, 0x00000000)
T56A8 000:168.337 - 0.004ms returns 0
T56A8 000:168.341 JLINK_WriteReg(R5, 0x00000000)
T56A8 000:168.344 - 0.004ms returns 0
T56A8 000:168.348 JLINK_WriteReg(R6, 0x00000000)
T56A8 000:168.351 - 0.005ms returns 0
T56A8 000:168.355 JLINK_WriteReg(R7, 0x00000000)
T56A8 000:168.358 - 0.004ms returns 0
T56A8 000:168.362 JLINK_WriteReg(R8, 0x00000000)
T56A8 000:168.366 - 0.005ms returns 0
T56A8 000:168.369 JLINK_WriteReg(R9, 0x20000134)
T56A8 000:168.373 - 0.005ms returns 0
T56A8 000:168.377 JLINK_WriteReg(R10, 0x00000000)
T56A8 000:168.380 - 0.005ms returns 0
T56A8 000:168.384 JLINK_WriteReg(R11, 0x00000000)
T56A8 000:168.387 - 0.005ms returns 0
T56A8 000:168.391 JLINK_WriteReg(R12, 0x00000000)
T56A8 000:168.394 - 0.004ms returns 0
T56A8 000:168.398 JLINK_WriteReg(R13 (SP), 0x20001000)
T56A8 000:168.402 - 0.005ms returns 0
T56A8 000:168.406 JLINK_WriteReg(R14, 0x20000001)
T56A8 000:168.409 - 0.005ms returns 0
T56A8 000:168.413 JLINK_WriteReg(R15 (PC), 0x2000007A)
T56A8 000:168.416 - 0.005ms returns 0
T56A8 000:168.420 JLINK_WriteReg(XPSR, 0x01000000)
T56A8 000:168.424 - 0.005ms returns 0
T56A8 000:168.428 JLINK_WriteReg(MSP, 0x20001000)
T56A8 000:168.432 - 0.006ms returns 0
T56A8 000:168.436 JLINK_WriteReg(PSP, 0x20001000)
T56A8 000:168.439 - 0.004ms returns 0
T56A8 000:168.442 JLINK_WriteReg(CFBP, 0x00000000)
T56A8 000:168.446 - 0.004ms returns 0
T56A8 000:168.449 JLINK_SetBPEx(Addr = 0x20000000, Type = 0xFFFFFFF2)
T56A8 000:168.453 - 0.005ms returns 0x00000002
T56A8 000:168.457 JLINK_Go()
T56A8 000:168.464   CPU_ReadMem(4 bytes @ 0xE0001000)
T56A8 000:170.407 - 1.952ms
T56A8 000:170.412 JLINK_IsHalted()
T56A8 000:170.611 - 0.201ms returns FALSE
T56A8 000:170.616 JLINK_HasError()
T56A8 000:177.030 JLINK_IsHalted()
T56A8 000:177.258 - 0.230ms returns FALSE
T56A8 000:177.265 JLINK_HasError()
T56A8 000:179.029 JLINK_IsHalted()
T56A8 000:179.237 - 0.210ms returns FALSE
T56A8 000:179.243 JLINK_HasError()
T56A8 000:182.027 JLINK_IsHalted()
T56A8 000:183.784   CPU_ReadMem(2 bytes @ 0x20000000)
T56A8 000:183.984 - 1.996ms returns TRUE
T56A8 000:184.029 JLINK_ReadReg(R15 (PC))
T56A8 000:184.034 - 0.006ms returns 0x20000000
T56A8 000:184.039 JLINK_ClrBPEx(BPHandle = 0x00000002)
T56A8 000:184.042 - 0.005ms returns 0x00
T56A8 000:184.047 JLINK_ReadReg(R0)
T56A8 000:184.050 - 0.005ms returns 0x00000000
T56A8 000:236.581 JLINK_HasError()
T56A8 000:236.632 JLINK_WriteReg(R0, 0x00000001)
T56A8 000:236.653 - 0.027ms returns 0
T56A8 000:236.669 JLINK_WriteReg(R1, 0x007A1200)
T56A8 000:236.682 - 0.019ms returns 0
T56A8 000:236.696 JLINK_WriteReg(R2, 0x00000001)
T56A8 000:236.709 - 0.018ms returns 0
T56A8 000:236.723 JLINK_WriteReg(R3, 0x00000000)
T56A8 000:236.735 - 0.017ms returns 0
T56A8 000:236.748 JLINK_WriteReg(R4, 0x00000000)
T56A8 000:236.761 - 0.018ms returns 0
T56A8 000:236.775 JLINK_WriteReg(R5, 0x00000000)
T56A8 000:236.787 - 0.017ms returns 0
T56A8 000:236.801 JLINK_WriteReg(R6, 0x00000000)
T56A8 000:236.813 - 0.018ms returns 0
T56A8 000:236.827 JLINK_WriteReg(R7, 0x00000000)
T56A8 000:236.839 - 0.018ms returns 0
T56A8 000:236.853 JLINK_WriteReg(R8, 0x00000000)
T56A8 000:236.865 - 0.017ms returns 0
T56A8 000:236.879 JLINK_WriteReg(R9, 0x20000134)
T56A8 000:236.891 - 0.017ms returns 0
T56A8 000:236.904 JLINK_WriteReg(R10, 0x00000000)
T56A8 000:236.917 - 0.018ms returns 0
T56A8 000:236.930 JLINK_WriteReg(R11, 0x00000000)
T56A8 000:236.942 - 0.017ms returns 0
T56A8 000:236.956 JLINK_WriteReg(R12, 0x00000000)
T56A8 000:236.968 - 0.017ms returns 0
T56A8 000:236.982 JLINK_WriteReg(R13 (SP), 0x20001000)
T56A8 000:236.995 - 0.020ms returns 0
T56A8 000:237.010 JLINK_WriteReg(R14, 0x20000001)
T56A8 000:237.021 - 0.016ms returns 0
T56A8 000:237.034 JLINK_WriteReg(R15 (PC), 0x2000006C)
T56A8 000:237.045 - 0.017ms returns 0
T56A8 000:237.058 JLINK_WriteReg(XPSR, 0x01000000)
T56A8 000:237.069 - 0.016ms returns 0
T56A8 000:237.082 JLINK_WriteReg(MSP, 0x20001000)
T56A8 000:237.093 - 0.016ms returns 0
T56A8 000:237.106 JLINK_WriteReg(PSP, 0x20001000)
T56A8 000:237.117 - 0.016ms returns 0
T56A8 000:237.130 JLINK_WriteReg(CFBP, 0x00000000)
T56A8 000:237.141 - 0.016ms returns 0
T56A8 000:237.154 JLINK_SetBPEx(Addr = 0x20000000, Type = 0xFFFFFFF2)
T56A8 000:237.168 - 0.019ms returns 0x00000003
T56A8 000:237.181 JLINK_Go()
T56A8 000:237.210   CPU_ReadMem(4 bytes @ 0xE0001000)
T56A8 000:239.376 - 2.207ms
T56A8 000:239.400 JLINK_IsHalted()
T56A8 000:241.322   CPU_ReadMem(2 bytes @ 0x20000000)
T56A8 000:241.624 - 2.249ms returns TRUE
T56A8 000:241.664 JLINK_ReadReg(R15 (PC))
T56A8 000:241.682 - 0.023ms returns 0x20000000
T56A8 000:241.695 JLINK_ClrBPEx(BPHandle = 0x00000003)
T56A8 000:241.707 - 0.017ms returns 0x00
T56A8 000:241.720 JLINK_ReadReg(R0)
T56A8 000:241.731 - 0.016ms returns 0x00000000
T56A8 000:246.598 JLINK_WriteMem(0x20000000, 0x13C Bytes, ...)
T56A8 000:246.616   Data:  00 BE 0A E0 0D 78 2D 06 68 40 08 24 40 00 00 D3 ...
T56A8 000:246.641   CPU_WriteMem(316 bytes @ 0x20000000)
T56A8 000:248.029 - 1.437ms returns 0x13C
T56A8 000:248.070 JLINK_HasError()
T56A8 000:248.083 JLINK_WriteReg(R0, 0x08000000)
T56A8 000:248.095 - 0.016ms returns 0
T56A8 000:248.105 JLINK_WriteReg(R1, 0x007A1200)
T56A8 000:248.115 - 0.013ms returns 0
T56A8 000:248.125 JLINK_WriteReg(R2, 0x00000002)
T56A8 000:248.134 - 0.013ms returns 0
T56A8 000:248.145 JLINK_WriteReg(R3, 0x00000000)
T56A8 000:248.154 - 0.013ms returns 0
T56A8 000:248.164 JLINK_WriteReg(R4, 0x00000000)
T56A8 000:248.173 - 0.013ms returns 0
T56A8 000:248.183 JLINK_WriteReg(R5, 0x00000000)
T56A8 000:248.192 - 0.013ms returns 0
T56A8 000:248.203 JLINK_WriteReg(R6, 0x00000000)
T56A8 000:248.212 - 0.013ms returns 0
T56A8 000:248.222 JLINK_WriteReg(R7, 0x00000000)
T56A8 000:248.231 - 0.013ms returns 0
T56A8 000:248.241 JLINK_WriteReg(R8, 0x00000000)
T56A8 000:248.250 - 0.013ms returns 0
T56A8 000:248.260 JLINK_WriteReg(R9, 0x20000134)
T56A8 000:248.269 - 0.013ms returns 0
T56A8 000:248.279 JLINK_WriteReg(R10, 0x00000000)
T56A8 000:248.289 - 0.013ms returns 0
T56A8 000:248.299 JLINK_WriteReg(R11, 0x00000000)
T56A8 000:248.314 - 0.023ms returns 0
T56A8 000:248.329 JLINK_WriteReg(R12, 0x00000000)
T56A8 000:248.338 - 0.013ms returns 0
T56A8 000:248.348 JLINK_WriteReg(R13 (SP), 0x20001000)
T56A8 000:248.358 - 0.014ms returns 0
T56A8 000:248.369 JLINK_WriteReg(R14, 0x20000001)
T56A8 000:248.378 - 0.013ms returns 0
T56A8 000:248.389 JLINK_WriteReg(R15 (PC), 0x20000038)
T56A8 000:248.398 - 0.013ms returns 0
T56A8 000:248.409 JLINK_WriteReg(XPSR, 0x01000000)
T56A8 000:248.418 - 0.013ms returns 0
T56A8 000:248.464 JLINK_WriteReg(MSP, 0x20001000)
T56A8 000:248.483 - 0.023ms returns 0
T56A8 000:248.494 JLINK_WriteReg(PSP, 0x20001000)
T56A8 000:248.504 - 0.014ms returns 0
T56A8 000:248.515 JLINK_WriteReg(CFBP, 0x00000000)
T56A8 000:248.524 - 0.013ms returns 0
T56A8 000:248.611 JLINK_SetBPEx(Addr = 0x20000000, Type = 0xFFFFFFF2)
T56A8 000:248.631   CPU_ReadMem(2 bytes @ 0x20000000)
T56A8 000:248.938 - 0.348ms returns 0x00000004
T56A8 000:248.971 JLINK_Go()
T56A8 000:248.988   CPU_WriteMem(2 bytes @ 0x20000000)
T56A8 000:249.267   CPU_ReadMem(4 bytes @ 0xE0001000)
T56A8 000:251.318 - 2.353ms
T56A8 000:251.333 JLINK_IsHalted()
T56A8 000:253.129   CPU_ReadMem(2 bytes @ 0x20000000)
T56A8 000:253.346 - 2.018ms returns TRUE
T56A8 000:253.360 JLINK_ReadReg(R15 (PC))
T56A8 000:253.371 - 0.015ms returns 0x20000000
T56A8 000:253.382 JLINK_ClrBPEx(BPHandle = 0x00000004)
T56A8 000:253.392 - 0.014ms returns 0x00
T56A8 000:253.403 JLINK_ReadReg(R0)
T56A8 000:253.412 - 0.013ms returns 0x00000000
T56A8 000:253.946 JLINK_WriteMem(0x2000013C, 0x2C4 Bytes, ...)
T56A8 000:253.964   Data:  50 4C 00 20 69 01 00 08 49 31 00 08 71 2C 00 08 ...
T56A8 000:253.991   CPU_WriteMem(708 bytes @ 0x2000013C)
T56A8 000:256.557 - 2.617ms returns 0x2C4
T56A8 000:256.573 JLINK_WriteMem(0x20000400, 0x13C Bytes, ...)
T56A8 000:256.591   Data:  70 47 01 F0 00 43 30 B4 21 F0 00 41 50 EA 01 02 ...
T56A8 000:256.647   CPU_WriteMem(316 bytes @ 0x20000400)
T56A8 000:258.138 - 1.585ms returns 0x13C
T56A8 000:258.171 JLINK_HasError()
T56A8 000:258.184 JLINK_WriteReg(R0, 0x08000000)
T56A8 000:258.199 - 0.019ms returns 0
T56A8 000:258.210 JLINK_WriteReg(R1, 0x00000400)
T56A8 000:258.220 - 0.014ms returns 0
T56A8 000:258.230 JLINK_WriteReg(R2, 0x2000013C)
T56A8 000:258.240 - 0.013ms returns 0
T56A8 000:258.250 JLINK_WriteReg(R3, 0x00000000)
T56A8 000:258.259 - 0.013ms returns 0
T56A8 000:258.270 JLINK_WriteReg(R4, 0x00000000)
T56A8 000:258.279 - 0.013ms returns 0
T56A8 000:258.289 JLINK_WriteReg(R5, 0x00000000)
T56A8 000:258.298 - 0.013ms returns 0
T56A8 000:258.308 JLINK_WriteReg(R6, 0x00000000)
T56A8 000:258.317 - 0.013ms returns 0
T56A8 000:258.328 JLINK_WriteReg(R7, 0x00000000)
T56A8 000:258.337 - 0.013ms returns 0
T56A8 000:258.347 JLINK_WriteReg(R8, 0x00000000)
T56A8 000:258.356 - 0.013ms returns 0
T56A8 000:258.366 JLINK_WriteReg(R9, 0x20000134)
T56A8 000:258.375 - 0.013ms returns 0
T56A8 000:258.386 JLINK_WriteReg(R10, 0x00000000)
T56A8 000:258.395 - 0.014ms returns 0
T56A8 000:258.406 JLINK_WriteReg(R11, 0x00000000)
T56A8 000:258.416 - 0.014ms returns 0
T56A8 000:258.425 JLINK_WriteReg(R12, 0x00000000)
T56A8 000:258.434 - 0.012ms returns 0
T56A8 000:258.443 JLINK_WriteReg(R13 (SP), 0x20001000)
T56A8 000:258.453 - 0.013ms returns 0
T56A8 000:258.463 JLINK_WriteReg(R14, 0x20000001)
T56A8 000:258.471 - 0.012ms returns 0
T56A8 000:258.481 JLINK_WriteReg(R15 (PC), 0x200000D8)
T56A8 000:258.490 - 0.012ms returns 0
T56A8 000:258.499 JLINK_WriteReg(XPSR, 0x01000000)
T56A8 000:258.508 - 0.012ms returns 0
T56A8 000:258.518 JLINK_WriteReg(MSP, 0x20001000)
T56A8 000:258.526 - 0.012ms returns 0
T56A8 000:258.536 JLINK_WriteReg(PSP, 0x20001000)
T56A8 000:258.545 - 0.012ms returns 0
T56A8 000:258.555 JLINK_WriteReg(CFBP, 0x00000000)
T56A8 000:258.564 - 0.013ms returns 0
T56A8 000:258.574 JLINK_SetBPEx(Addr = 0x20000000, Type = 0xFFFFFFF2)
T56A8 000:258.584 - 0.014ms returns 0x00000005
T56A8 000:258.595 JLINK_Go()
T56A8 000:258.616   CPU_ReadMem(4 bytes @ 0xE0001000)
T56A8 000:260.869 - 2.292ms
T56A8 000:260.897 JLINK_IsHalted()
T56A8 000:261.124 - 0.232ms returns FALSE
T56A8 000:261.136 JLINK_HasError()
T56A8 000:270.549 JLINK_IsHalted()
T56A8 000:270.754 - 0.214ms returns FALSE
T56A8 000:270.767 JLINK_HasError()
T56A8 000:272.548 JLINK_IsHalted()
T56A8 000:272.758 - 0.216ms returns FALSE
T56A8 000:272.769 JLINK_HasError()
T56A8 000:274.551 JLINK_IsHalted()
T56A8 000:276.340   CPU_ReadMem(2 bytes @ 0x20000000)
T56A8 000:276.540 - 1.992ms returns TRUE
T56A8 000:276.552 JLINK_ReadReg(R15 (PC))
T56A8 000:276.559 - 0.009ms returns 0x20000000
T56A8 000:276.565 JLINK_ClrBPEx(BPHandle = 0x00000005)
T56A8 000:276.570 - 0.007ms returns 0x00
T56A8 000:276.576 JLINK_ReadReg(R0)
T56A8 000:276.581 - 0.007ms returns 0x00000000
T56A8 000:277.064 JLINK_WriteMem(0x2000013C, 0x2C4 Bytes, ...)
T56A8 000:277.077   Data:  06 DB 41 02 04 D0 00 F0 00 40 40 F0 7E 50 10 BD ...
T56A8 000:277.093   CPU_WriteMem(708 bytes @ 0x2000013C)
T56A8 000:279.598 - 2.547ms returns 0x2C4
T56A8 000:279.619 JLINK_WriteMem(0x20000400, 0x13C Bytes, ...)
T56A8 000:279.626   Data:  06 4C 07 4D 06 E0 E0 68 40 F0 01 03 94 E8 07 00 ...
T56A8 000:279.643   CPU_WriteMem(316 bytes @ 0x20000400)
T56A8 000:280.996 - 1.386ms returns 0x13C
T56A8 000:281.014 JLINK_HasError()
T56A8 000:281.022 JLINK_WriteReg(R0, 0x08000400)
T56A8 000:281.033 - 0.013ms returns 0
T56A8 000:281.040 JLINK_WriteReg(R1, 0x00000400)
T56A8 000:281.046 - 0.009ms returns 0
T56A8 000:281.054 JLINK_WriteReg(R2, 0x2000013C)
T56A8 000:281.060 - 0.009ms returns 0
T56A8 000:281.067 JLINK_WriteReg(R3, 0x00000000)
T56A8 000:281.073 - 0.009ms returns 0
T56A8 000:281.080 JLINK_WriteReg(R4, 0x00000000)
T56A8 000:281.086 - 0.009ms returns 0
T56A8 000:281.093 JLINK_WriteReg(R5, 0x00000000)
T56A8 000:281.099 - 0.008ms returns 0
T56A8 000:281.106 JLINK_WriteReg(R6, 0x00000000)
T56A8 000:281.112 - 0.008ms returns 0
T56A8 000:281.118 JLINK_WriteReg(R7, 0x00000000)
T56A8 000:281.125 - 0.009ms returns 0
T56A8 000:281.131 JLINK_WriteReg(R8, 0x00000000)
T56A8 000:281.137 - 0.009ms returns 0
T56A8 000:281.144 JLINK_WriteReg(R9, 0x20000134)
T56A8 000:281.150 - 0.008ms returns 0
T56A8 000:281.157 JLINK_WriteReg(R10, 0x00000000)
T56A8 000:281.163 - 0.009ms returns 0
T56A8 000:281.170 JLINK_WriteReg(R11, 0x00000000)
T56A8 000:281.176 - 0.008ms returns 0
T56A8 000:281.183 JLINK_WriteReg(R12, 0x00000000)
T56A8 000:281.189 - 0.008ms returns 0
T56A8 000:281.196 JLINK_WriteReg(R13 (SP), 0x20001000)
T56A8 000:281.203 - 0.009ms returns 0
T56A8 000:281.210 JLINK_WriteReg(R14, 0x20000001)
T56A8 000:281.216 - 0.009ms returns 0
T56A8 000:281.223 JLINK_WriteReg(R15 (PC), 0x200000D8)
T56A8 000:281.229 - 0.009ms returns 0
T56A8 000:281.236 JLINK_WriteReg(XPSR, 0x01000000)
T56A8 000:281.242 - 0.008ms returns 0
T56A8 000:281.249 JLINK_WriteReg(MSP, 0x20001000)
T56A8 000:281.255 - 0.008ms returns 0
T56A8 000:281.262 JLINK_WriteReg(PSP, 0x20001000)
T56A8 000:281.268 - 0.009ms returns 0
T56A8 000:281.275 JLINK_WriteReg(CFBP, 0x00000000)
T56A8 000:281.280 - 0.008ms returns 0
T56A8 000:281.287 JLINK_SetBPEx(Addr = 0x20000000, Type = 0xFFFFFFF2)
T56A8 000:281.296 - 0.011ms returns 0x00000006
T56A8 000:281.303 JLINK_Go()
T56A8 000:281.316   CPU_ReadMem(4 bytes @ 0xE0001000)
T56A8 000:283.559 - 2.277ms
T56A8 000:283.596 JLINK_IsHalted()
T56A8 000:283.843 - 0.256ms returns FALSE
T56A8 000:283.859 JLINK_HasError()
T56A8 000:291.546 JLINK_IsHalted()
T56A8 000:291.758 - 0.220ms returns FALSE
T56A8 000:291.772 JLINK_HasError()
T56A8 000:295.545 JLINK_IsHalted()
T56A8 000:295.759 - 0.222ms returns FALSE
T56A8 000:295.773 JLINK_HasError()
T56A8 000:299.547 JLINK_IsHalted()
T56A8 000:301.315   CPU_ReadMem(2 bytes @ 0x20000000)
T56A8 000:301.540 - 1.996ms returns TRUE
T56A8 000:301.550 JLINK_ReadReg(R15 (PC))
T56A8 000:301.558 - 0.010ms returns 0x20000000
T56A8 000:301.564 JLINK_ClrBPEx(BPHandle = 0x00000006)
T56A8 000:301.569 - 0.007ms returns 0x00
T56A8 000:301.575 JLINK_ReadReg(R0)
T56A8 000:301.580 - 0.007ms returns 0x00000000
T56A8 000:301.975 JLINK_WriteMem(0x2000013C, 0x2C4 Bytes, ...)
T56A8 000:301.992   Data:  00 78 00 28 18 BF 10 BD BD E8 10 40 03 F0 2E B9 ...
T56A8 000:302.010   CPU_WriteMem(708 bytes @ 0x2000013C)
T56A8 000:304.542 - 2.571ms returns 0x2C4
T56A8 000:304.554 JLINK_WriteMem(0x20000400, 0x13C Bytes, ...)
T56A8 000:304.559   Data:  DF ED C8 0A A0 60 04 F1 18 00 C0 ED 00 0A C0 ED ...
T56A8 000:304.574   CPU_WriteMem(316 bytes @ 0x20000400)
T56A8 000:305.920 - 1.370ms returns 0x13C
T56A8 000:305.930 JLINK_HasError()
T56A8 000:305.939 JLINK_WriteReg(R0, 0x08000800)
T56A8 000:305.946 - 0.010ms returns 0
T56A8 000:305.953 JLINK_WriteReg(R1, 0x00000400)
T56A8 000:305.960 - 0.009ms returns 0
T56A8 000:305.966 JLINK_WriteReg(R2, 0x2000013C)
T56A8 000:305.973 - 0.009ms returns 0
T56A8 000:305.980 JLINK_WriteReg(R3, 0x00000000)
T56A8 000:305.986 - 0.008ms returns 0
T56A8 000:305.993 JLINK_WriteReg(R4, 0x00000000)
T56A8 000:305.998 - 0.008ms returns 0
T56A8 000:306.005 JLINK_WriteReg(R5, 0x00000000)
T56A8 000:306.011 - 0.009ms returns 0
T56A8 000:306.018 JLINK_WriteReg(R6, 0x00000000)
T56A8 000:306.024 - 0.008ms returns 0
T56A8 000:306.031 JLINK_WriteReg(R7, 0x00000000)
T56A8 000:306.037 - 0.009ms returns 0
T56A8 000:306.044 JLINK_WriteReg(R8, 0x00000000)
T56A8 000:306.050 - 0.008ms returns 0
T56A8 000:306.057 JLINK_WriteReg(R9, 0x20000134)
T56A8 000:306.063 - 0.009ms returns 0
T56A8 000:306.070 JLINK_WriteReg(R10, 0x00000000)
T56A8 000:306.076 - 0.009ms returns 0
T56A8 000:306.083 JLINK_WriteReg(R11, 0x00000000)
T56A8 000:306.089 - 0.008ms returns 0
T56A8 000:306.096 JLINK_WriteReg(R12, 0x00000000)
T56A8 000:306.102 - 0.008ms returns 0
T56A8 000:306.109 JLINK_WriteReg(R13 (SP), 0x20001000)
T56A8 000:306.115 - 0.009ms returns 0
T56A8 000:306.122 JLINK_WriteReg(R14, 0x20000001)
T56A8 000:306.128 - 0.009ms returns 0
T56A8 000:306.135 JLINK_WriteReg(R15 (PC), 0x200000D8)
T56A8 000:306.141 - 0.009ms returns 0
T56A8 000:306.148 JLINK_WriteReg(XPSR, 0x01000000)
T56A8 000:306.154 - 0.009ms returns 0
T56A8 000:306.161 JLINK_WriteReg(MSP, 0x20001000)
T56A8 000:306.167 - 0.009ms returns 0
T56A8 000:306.174 JLINK_WriteReg(PSP, 0x20001000)
T56A8 000:306.180 - 0.008ms returns 0
T56A8 000:306.187 JLINK_WriteReg(CFBP, 0x00000000)
T56A8 000:306.193 - 0.008ms returns 0
T56A8 000:306.200 JLINK_SetBPEx(Addr = 0x20000000, Type = 0xFFFFFFF2)
T56A8 000:306.207 - 0.010ms returns 0x00000007
T56A8 000:306.214 JLINK_Go()
T56A8 000:306.226   CPU_ReadMem(4 bytes @ 0xE0001000)
T56A8 000:308.244 - 2.036ms
T56A8 000:308.257 JLINK_IsHalted()
T56A8 000:308.543 - 0.290ms returns FALSE
T56A8 000:308.553 JLINK_HasError()
T56A8 000:317.549 JLINK_IsHalted()
T56A8 000:317.794 - 0.256ms returns FALSE
T56A8 000:317.811 JLINK_HasError()
T56A8 000:319.584 JLINK_IsHalted()
T56A8 000:319.809 - 0.227ms returns FALSE
T56A8 000:319.815 JLINK_HasError()
T56A8 000:321.545 JLINK_IsHalted()
T56A8 000:323.351   CPU_ReadMem(2 bytes @ 0x20000000)
T56A8 000:323.604 - 2.065ms returns TRUE
T56A8 000:323.616 JLINK_ReadReg(R15 (PC))
T56A8 000:323.623 - 0.009ms returns 0x20000000
T56A8 000:323.629 JLINK_ClrBPEx(BPHandle = 0x00000007)
T56A8 000:323.634 - 0.007ms returns 0x00
T56A8 000:323.639 JLINK_ReadReg(R0)
T56A8 000:323.644 - 0.006ms returns 0x00000000
T56A8 000:324.007 JLINK_WriteMem(0x2000013C, 0x2C4 Bytes, ...)
T56A8 000:324.015   Data:  09 20 C0 F2 CA 81 00 F0 26 B9 9A E1 25 E1 B9 E0 ...
T56A8 000:324.027   CPU_WriteMem(708 bytes @ 0x2000013C)
T56A8 000:326.602 - 2.602ms returns 0x2C4
T56A8 000:326.615 JLINK_WriteMem(0x20000400, 0x13C Bytes, ...)
T56A8 000:326.621   Data:  23 F0 7E 49 43 1E 01 46 02 46 4F F0 80 08 03 EB ...
T56A8 000:326.634   CPU_WriteMem(316 bytes @ 0x20000400)
T56A8 000:327.972 - 1.368ms returns 0x13C
T56A8 000:327.990 JLINK_HasError()
T56A8 000:327.998 JLINK_WriteReg(R0, 0x08000C00)
T56A8 000:328.008 - 0.012ms returns 0
T56A8 000:328.015 JLINK_WriteReg(R1, 0x00000400)
T56A8 000:328.021 - 0.008ms returns 0
T56A8 000:328.027 JLINK_WriteReg(R2, 0x2000013C)
T56A8 000:328.033 - 0.008ms returns 0
T56A8 000:328.039 JLINK_WriteReg(R3, 0x00000000)
T56A8 000:328.094 - 0.060ms returns 0
T56A8 000:328.103 JLINK_WriteReg(R4, 0x00000000)
T56A8 000:328.109 - 0.008ms returns 0
T56A8 000:328.115 JLINK_WriteReg(R5, 0x00000000)
T56A8 000:328.121 - 0.008ms returns 0
T56A8 000:328.127 JLINK_WriteReg(R6, 0x00000000)
T56A8 000:328.133 - 0.008ms returns 0
T56A8 000:328.139 JLINK_WriteReg(R7, 0x00000000)
T56A8 000:328.145 - 0.008ms returns 0
T56A8 000:328.151 JLINK_WriteReg(R8, 0x00000000)
T56A8 000:328.157 - 0.008ms returns 0
T56A8 000:328.163 JLINK_WriteReg(R9, 0x20000134)
T56A8 000:328.168 - 0.008ms returns 0
T56A8 000:328.175 JLINK_WriteReg(R10, 0x00000000)
T56A8 000:328.181 - 0.008ms returns 0
T56A8 000:328.187 JLINK_WriteReg(R11, 0x00000000)
T56A8 000:328.192 - 0.008ms returns 0
T56A8 000:328.199 JLINK_WriteReg(R12, 0x00000000)
T56A8 000:328.204 - 0.008ms returns 0
T56A8 000:328.211 JLINK_WriteReg(R13 (SP), 0x20001000)
T56A8 000:328.217 - 0.009ms returns 0
T56A8 000:328.223 JLINK_WriteReg(R14, 0x20000001)
T56A8 000:328.229 - 0.008ms returns 0
T56A8 000:328.235 JLINK_WriteReg(R15 (PC), 0x200000D8)
T56A8 000:328.241 - 0.008ms returns 0
T56A8 000:328.248 JLINK_WriteReg(XPSR, 0x01000000)
T56A8 000:328.253 - 0.008ms returns 0
T56A8 000:328.260 JLINK_WriteReg(MSP, 0x20001000)
T56A8 000:328.265 - 0.008ms returns 0
T56A8 000:328.272 JLINK_WriteReg(PSP, 0x20001000)
T56A8 000:328.279 - 0.011ms returns 0
T56A8 000:328.286 JLINK_WriteReg(CFBP, 0x00000000)
T56A8 000:328.292 - 0.007ms returns 0
T56A8 000:328.298 JLINK_SetBPEx(Addr = 0x20000000, Type = 0xFFFFFFF2)
T56A8 000:328.305 - 0.009ms returns 0x00000008
T56A8 000:328.311 JLINK_Go()
T56A8 000:328.324   CPU_ReadMem(4 bytes @ 0xE0001000)
T56A8 000:330.386 - 2.086ms
T56A8 000:330.404 JLINK_IsHalted()
T56A8 000:330.693 - 0.297ms returns FALSE
T56A8 000:330.707 JLINK_HasError()
T56A8 000:335.545 JLINK_IsHalted()
T56A8 000:335.758 - 0.219ms returns FALSE
T56A8 000:335.769 JLINK_HasError()
T56A8 000:337.544 JLINK_IsHalted()
T56A8 000:337.732 - 0.193ms returns FALSE
T56A8 000:337.741 JLINK_HasError()
T56A8 000:339.557 JLINK_IsHalted()
T56A8 000:339.758 - 0.202ms returns FALSE
T56A8 000:339.763 JLINK_HasError()
T56A8 000:341.561 JLINK_IsHalted()
T56A8 000:341.755 - 0.199ms returns FALSE
T56A8 000:341.764 JLINK_HasError()
T56A8 000:343.558 JLINK_IsHalted()
T56A8 000:345.310   CPU_ReadMem(2 bytes @ 0x20000000)
T56A8 000:345.538 - 1.982ms returns TRUE
T56A8 000:345.543 JLINK_ReadReg(R15 (PC))
T56A8 000:345.552 - 0.009ms returns 0x20000000
T56A8 000:345.577 JLINK_ClrBPEx(BPHandle = 0x00000008)
T56A8 000:345.581 - 0.006ms returns 0x00
T56A8 000:345.586 JLINK_ReadReg(R0)
T56A8 000:345.590 - 0.005ms returns 0x00000000
T56A8 000:345.891 JLINK_WriteMem(0x2000013C, 0x2C4 Bytes, ...)
T56A8 000:345.898   Data:  15 48 0D 46 83 B0 01 78 0A 20 40 EA 81 11 00 98 ...
T56A8 000:345.909   CPU_WriteMem(708 bytes @ 0x2000013C)
T56A8 000:348.416 - 2.531ms returns 0x2C4
T56A8 000:348.427 JLINK_WriteMem(0x20000400, 0x13C Bytes, ...)
T56A8 000:348.433   Data:  5F FA B7 48 B1 EE 40 0A 80 ED 05 0A 04 E0 03 F0 ...
T56A8 000:348.444   CPU_WriteMem(316 bytes @ 0x20000400)
T56A8 000:349.816 - 1.394ms returns 0x13C
T56A8 000:349.827 JLINK_HasError()
T56A8 000:349.833 JLINK_WriteReg(R0, 0x08001000)
T56A8 000:349.839 - 0.008ms returns 0
T56A8 000:349.844 JLINK_WriteReg(R1, 0x00000400)
T56A8 000:349.849 - 0.006ms returns 0
T56A8 000:349.854 JLINK_WriteReg(R2, 0x2000013C)
T56A8 000:349.858 - 0.006ms returns 0
T56A8 000:349.863 JLINK_WriteReg(R3, 0x00000000)
T56A8 000:349.867 - 0.006ms returns 0
T56A8 000:349.872 JLINK_WriteReg(R4, 0x00000000)
T56A8 000:349.876 - 0.006ms returns 0
T56A8 000:349.881 JLINK_WriteReg(R5, 0x00000000)
T56A8 000:349.885 - 0.006ms returns 0
T56A8 000:349.890 JLINK_WriteReg(R6, 0x00000000)
T56A8 000:349.895 - 0.006ms returns 0
T56A8 000:349.899 JLINK_WriteReg(R7, 0x00000000)
T56A8 000:349.904 - 0.006ms returns 0
T56A8 000:349.909 JLINK_WriteReg(R8, 0x00000000)
T56A8 000:349.913 - 0.006ms returns 0
T56A8 000:349.918 JLINK_WriteReg(R9, 0x20000134)
T56A8 000:349.956 - 0.042ms returns 0
T56A8 000:349.963 JLINK_WriteReg(R10, 0x00000000)
T56A8 000:349.968 - 0.006ms returns 0
T56A8 000:349.973 JLINK_WriteReg(R11, 0x00000000)
T56A8 000:349.977 - 0.006ms returns 0
T56A8 000:349.982 JLINK_WriteReg(R12, 0x00000000)
T56A8 000:349.986 - 0.006ms returns 0
T56A8 000:349.991 JLINK_WriteReg(R13 (SP), 0x20001000)
T56A8 000:349.996 - 0.007ms returns 0
T56A8 000:350.001 JLINK_WriteReg(R14, 0x20000001)
T56A8 000:350.006 - 0.006ms returns 0
T56A8 000:350.011 JLINK_WriteReg(R15 (PC), 0x200000D8)
T56A8 000:350.015 - 0.006ms returns 0
T56A8 000:350.020 JLINK_WriteReg(XPSR, 0x01000000)
T56A8 000:350.025 - 0.006ms returns 0
T56A8 000:350.030 JLINK_WriteReg(MSP, 0x20001000)
T56A8 000:350.034 - 0.006ms returns 0
T56A8 000:350.039 JLINK_WriteReg(PSP, 0x20001000)
T56A8 000:350.044 - 0.006ms returns 0
T56A8 000:350.049 JLINK_WriteReg(CFBP, 0x00000000)
T56A8 000:350.053 - 0.006ms returns 0
T56A8 000:350.058 JLINK_SetBPEx(Addr = 0x20000000, Type = 0xFFFFFFF2)
T56A8 000:350.063 - 0.007ms returns 0x00000009
T56A8 000:350.069 JLINK_Go()
T56A8 000:350.079   CPU_ReadMem(4 bytes @ 0xE0001000)
T56A8 000:351.981 - 1.915ms
T56A8 000:351.988 JLINK_IsHalted()
T56A8 000:352.186 - 0.200ms returns FALSE
T56A8 000:352.193 JLINK_HasError()
T56A8 000:355.544 JLINK_IsHalted()
T56A8 000:355.757 - 0.219ms returns FALSE
T56A8 000:355.768 JLINK_HasError()
T56A8 000:357.544 JLINK_IsHalted()
T56A8 000:357.732 - 0.193ms returns FALSE
T56A8 000:357.741 JLINK_HasError()
T56A8 000:359.571 JLINK_IsHalted()
T56A8 000:359.787 - 0.219ms returns FALSE
T56A8 000:359.794 JLINK_HasError()
T56A8 000:361.552 JLINK_IsHalted()
T56A8 000:361.755 - 0.205ms returns FALSE
T56A8 000:361.761 JLINK_HasError()
T56A8 000:363.545 JLINK_IsHalted()
T56A8 000:363.755 - 0.215ms returns FALSE
T56A8 000:363.765 JLINK_HasError()
T56A8 000:365.545 JLINK_IsHalted()
T56A8 000:367.311   CPU_ReadMem(2 bytes @ 0x20000000)
T56A8 000:367.539 - 1.996ms returns TRUE
T56A8 000:367.547 JLINK_ReadReg(R15 (PC))
T56A8 000:367.553 - 0.008ms returns 0x20000000
T56A8 000:367.558 JLINK_ClrBPEx(BPHandle = 0x00000009)
T56A8 000:367.562 - 0.006ms returns 0x00
T56A8 000:367.567 JLINK_ReadReg(R0)
T56A8 000:367.571 - 0.005ms returns 0x00000000
T56A8 000:367.880 JLINK_WriteMem(0x2000013C, 0x2C4 Bytes, ...)
T56A8 000:367.887   Data:  00 68 21 1D 04 F0 58 FE 67 48 40 68 04 F1 08 01 ...
T56A8 000:367.898   CPU_WriteMem(708 bytes @ 0x2000013C)
T56A8 000:370.388 - 2.510ms returns 0x2C4
T56A8 000:370.394 JLINK_WriteMem(0x20000400, 0x13C Bytes, ...)
T56A8 000:370.398   Data:  3F FC DE E7 01 0E 20 1D 00 F0 E8 FB 27 E7 08 21 ...
T56A8 000:370.405   CPU_WriteMem(316 bytes @ 0x20000400)
T56A8 000:371.770 - 1.382ms returns 0x13C
T56A8 000:371.784 JLINK_HasError()
T56A8 000:371.814 JLINK_WriteReg(R0, 0x08001400)
T56A8 000:371.822 - 0.010ms returns 0
T56A8 000:371.828 JLINK_WriteReg(R1, 0x00000400)
T56A8 000:371.833 - 0.007ms returns 0
T56A8 000:371.838 JLINK_WriteReg(R2, 0x2000013C)
T56A8 000:371.843 - 0.006ms returns 0
T56A8 000:371.848 JLINK_WriteReg(R3, 0x00000000)
T56A8 000:371.853 - 0.006ms returns 0
T56A8 000:371.858 JLINK_WriteReg(R4, 0x00000000)
T56A8 000:371.862 - 0.006ms returns 0
T56A8 000:371.867 JLINK_WriteReg(R5, 0x00000000)
T56A8 000:371.872 - 0.006ms returns 0
T56A8 000:371.877 JLINK_WriteReg(R6, 0x00000000)
T56A8 000:371.882 - 0.006ms returns 0
T56A8 000:371.887 JLINK_WriteReg(R7, 0x00000000)
T56A8 000:371.891 - 0.006ms returns 0
T56A8 000:371.896 JLINK_WriteReg(R8, 0x00000000)
T56A8 000:371.901 - 0.006ms returns 0
T56A8 000:371.906 JLINK_WriteReg(R9, 0x20000134)
T56A8 000:371.910 - 0.006ms returns 0
T56A8 000:371.916 JLINK_WriteReg(R10, 0x00000000)
T56A8 000:371.920 - 0.006ms returns 0
T56A8 000:371.925 JLINK_WriteReg(R11, 0x00000000)
T56A8 000:371.930 - 0.006ms returns 0
T56A8 000:371.935 JLINK_WriteReg(R12, 0x00000000)
T56A8 000:371.940 - 0.006ms returns 0
T56A8 000:371.945 JLINK_WriteReg(R13 (SP), 0x20001000)
T56A8 000:371.950 - 0.007ms returns 0
T56A8 000:371.955 JLINK_WriteReg(R14, 0x20000001)
T56A8 000:371.993 - 0.042ms returns 0
T56A8 000:372.001 JLINK_WriteReg(R15 (PC), 0x200000D8)
T56A8 000:372.005 - 0.006ms returns 0
T56A8 000:372.011 JLINK_WriteReg(XPSR, 0x01000000)
T56A8 000:372.015 - 0.006ms returns 0
T56A8 000:372.020 JLINK_WriteReg(MSP, 0x20001000)
T56A8 000:372.025 - 0.006ms returns 0
T56A8 000:372.030 JLINK_WriteReg(PSP, 0x20001000)
T56A8 000:372.035 - 0.006ms returns 0
T56A8 000:372.040 JLINK_WriteReg(CFBP, 0x00000000)
T56A8 000:372.044 - 0.006ms returns 0
T56A8 000:372.050 JLINK_SetBPEx(Addr = 0x20000000, Type = 0xFFFFFFF2)
T56A8 000:372.055 - 0.007ms returns 0x0000000A
T56A8 000:372.061 JLINK_Go()
T56A8 000:372.071   CPU_ReadMem(4 bytes @ 0xE0001000)
T56A8 000:374.006 - 1.952ms
T56A8 000:374.019 JLINK_IsHalted()
T56A8 000:374.204 - 0.188ms returns FALSE
T56A8 000:374.212 JLINK_HasError()
T56A8 000:378.554 JLINK_IsHalted()
T56A8 000:378.785 - 0.240ms returns FALSE
T56A8 000:378.800 JLINK_HasError()
T56A8 000:381.551 JLINK_IsHalted()
T56A8 000:381.759 - 0.217ms returns FALSE
T56A8 000:381.784 JLINK_HasError()
T56A8 000:384.550 JLINK_IsHalted()
T56A8 000:384.759 - 0.217ms returns FALSE
T56A8 000:384.774 JLINK_HasError()
T56A8 000:387.551 JLINK_IsHalted()
T56A8 000:389.285   CPU_ReadMem(2 bytes @ 0x20000000)
T56A8 000:389.545 - 1.997ms returns TRUE
T56A8 000:389.553 JLINK_ReadReg(R15 (PC))
T56A8 000:389.562 - 0.010ms returns 0x20000000
T56A8 000:389.569 JLINK_ClrBPEx(BPHandle = 0x0000000A)
T56A8 000:389.590 - 0.023ms returns 0x00
T56A8 000:389.597 JLINK_ReadReg(R0)
T56A8 000:389.603 - 0.007ms returns 0x00000000
T56A8 000:389.934 JLINK_WriteMem(0x2000013C, 0x2C4 Bytes, ...)
T56A8 000:389.941   Data:  09 BA 97 ED 0A AA D7 ED 0B 9A 01 F0 33 FA DF ED ...
T56A8 000:389.958   CPU_WriteMem(708 bytes @ 0x2000013C)
T56A8 000:392.551 - 2.629ms returns 0x2C4
T56A8 000:392.583 JLINK_WriteMem(0x20000400, 0x13C Bytes, ...)
T56A8 000:392.589   Data:  D5 ED 0C 0A 31 EE 4B 1A 20 EE 20 0A 61 EE 20 0A ...
T56A8 000:392.601   CPU_WriteMem(316 bytes @ 0x20000400)
T56A8 000:393.939 - 1.362ms returns 0x13C
T56A8 000:393.950 JLINK_HasError()
T56A8 000:393.956 JLINK_WriteReg(R0, 0x08001800)
T56A8 000:393.963 - 0.009ms returns 0
T56A8 000:393.968 JLINK_WriteReg(R1, 0x00000400)
T56A8 000:393.972 - 0.006ms returns 0
T56A8 000:393.977 JLINK_WriteReg(R2, 0x2000013C)
T56A8 000:393.981 - 0.006ms returns 0
T56A8 000:393.986 JLINK_WriteReg(R3, 0x00000000)
T56A8 000:393.990 - 0.006ms returns 0
T56A8 000:393.994 JLINK_WriteReg(R4, 0x00000000)
T56A8 000:393.998 - 0.006ms returns 0
T56A8 000:394.003 JLINK_WriteReg(R5, 0x00000000)
T56A8 000:394.007 - 0.006ms returns 0
T56A8 000:394.011 JLINK_WriteReg(R6, 0x00000000)
T56A8 000:394.016 - 0.006ms returns 0
T56A8 000:394.020 JLINK_WriteReg(R7, 0x00000000)
T56A8 000:394.024 - 0.005ms returns 0
T56A8 000:394.029 JLINK_WriteReg(R8, 0x00000000)
T56A8 000:394.033 - 0.006ms returns 0
T56A8 000:394.037 JLINK_WriteReg(R9, 0x20000134)
T56A8 000:394.041 - 0.006ms returns 0
T56A8 000:394.046 JLINK_WriteReg(R10, 0x00000000)
T56A8 000:394.050 - 0.006ms returns 0
T56A8 000:394.054 JLINK_WriteReg(R11, 0x00000000)
T56A8 000:394.059 - 0.006ms returns 0
T56A8 000:394.063 JLINK_WriteReg(R12, 0x00000000)
T56A8 000:394.067 - 0.006ms returns 0
T56A8 000:394.072 JLINK_WriteReg(R13 (SP), 0x20001000)
T56A8 000:394.076 - 0.006ms returns 0
T56A8 000:394.081 JLINK_WriteReg(R14, 0x20000001)
T56A8 000:394.085 - 0.006ms returns 0
T56A8 000:394.090 JLINK_WriteReg(R15 (PC), 0x200000D8)
T56A8 000:394.094 - 0.006ms returns 0
T56A8 000:394.098 JLINK_WriteReg(XPSR, 0x01000000)
T56A8 000:394.102 - 0.006ms returns 0
T56A8 000:394.107 JLINK_WriteReg(MSP, 0x20001000)
T56A8 000:394.111 - 0.005ms returns 0
T56A8 000:394.116 JLINK_WriteReg(PSP, 0x20001000)
T56A8 000:394.120 - 0.005ms returns 0
T56A8 000:394.124 JLINK_WriteReg(CFBP, 0x00000000)
T56A8 000:394.128 - 0.006ms returns 0
T56A8 000:394.133 JLINK_SetBPEx(Addr = 0x20000000, Type = 0xFFFFFFF2)
T56A8 000:394.138 - 0.007ms returns 0x0000000B
T56A8 000:394.143 JLINK_Go()
T56A8 000:394.153   CPU_ReadMem(4 bytes @ 0xE0001000)
T56A8 000:396.082 - 1.942ms
T56A8 000:396.091 JLINK_IsHalted()
T56A8 000:396.286 - 0.198ms returns FALSE
T56A8 000:396.293 JLINK_HasError()
T56A8 000:400.548 JLINK_IsHalted()
T56A8 000:400.757 - 0.215ms returns FALSE
T56A8 000:400.767 JLINK_HasError()
T56A8 000:402.553 JLINK_IsHalted()
T56A8 000:402.754 - 0.208ms returns FALSE
T56A8 000:402.766 JLINK_HasError()
T56A8 000:404.552 JLINK_IsHalted()
T56A8 000:404.756 - 0.211ms returns FALSE
T56A8 000:404.768 JLINK_HasError()
T56A8 000:406.557 JLINK_IsHalted()
T56A8 000:406.784 - 0.234ms returns FALSE
T56A8 000:406.797 JLINK_HasError()
T56A8 000:408.552 JLINK_IsHalted()
T56A8 000:408.767 - 0.221ms returns FALSE
T56A8 000:408.778 JLINK_HasError()
T56A8 000:410.551 JLINK_IsHalted()
T56A8 000:412.282   CPU_ReadMem(2 bytes @ 0x20000000)
T56A8 000:412.538 - 1.989ms returns TRUE
T56A8 000:412.569 JLINK_ReadReg(R15 (PC))
T56A8 000:412.578 - 0.013ms returns 0x20000000
T56A8 000:412.585 JLINK_ClrBPEx(BPHandle = 0x0000000B)
T56A8 000:412.591 - 0.008ms returns 0x00
T56A8 000:412.597 JLINK_ReadReg(R0)
T56A8 000:412.603 - 0.008ms returns 0x00000000
T56A8 000:413.051 JLINK_WriteMem(0x2000013C, 0x2C4 Bytes, ...)
T56A8 000:413.062   Data:  40 00 00 20 7C 00 00 20 00 40 9C 45 66 66 66 3F ...
T56A8 000:413.076   CPU_WriteMem(708 bytes @ 0x2000013C)
T56A8 000:415.595 - 2.553ms returns 0x2C4
T56A8 000:415.608 JLINK_WriteMem(0x20000400, 0x13C Bytes, ...)
T56A8 000:415.612   Data:  5F EA 97 08 4F F0 00 05 17 D0 00 BF 06 EB 85 00 ...
T56A8 000:415.622   CPU_WriteMem(316 bytes @ 0x20000400)
T56A8 000:416.936 - 1.333ms returns 0x13C
T56A8 000:416.947 JLINK_HasError()
T56A8 000:416.951 JLINK_WriteReg(R0, 0x08001C00)
T56A8 000:416.957 - 0.006ms returns 0
T56A8 000:416.960 JLINK_WriteReg(R1, 0x00000400)
T56A8 000:416.963 - 0.004ms returns 0
T56A8 000:416.967 JLINK_WriteReg(R2, 0x2000013C)
T56A8 000:416.970 - 0.004ms returns 0
T56A8 000:416.974 JLINK_WriteReg(R3, 0x00000000)
T56A8 000:416.977 - 0.004ms returns 0
T56A8 000:416.980 JLINK_WriteReg(R4, 0x00000000)
T56A8 000:416.983 - 0.004ms returns 0
T56A8 000:416.986 JLINK_WriteReg(R5, 0x00000000)
T56A8 000:416.990 - 0.004ms returns 0
T56A8 000:416.993 JLINK_WriteReg(R6, 0x00000000)
T56A8 000:416.996 - 0.004ms returns 0
T56A8 000:416.999 JLINK_WriteReg(R7, 0x00000000)
T56A8 000:417.002 - 0.004ms returns 0
T56A8 000:417.006 JLINK_WriteReg(R8, 0x00000000)
T56A8 000:417.009 - 0.004ms returns 0
T56A8 000:417.012 JLINK_WriteReg(R9, 0x20000134)
T56A8 000:417.015 - 0.004ms returns 0
T56A8 000:417.019 JLINK_WriteReg(R10, 0x00000000)
T56A8 000:417.022 - 0.004ms returns 0
T56A8 000:417.025 JLINK_WriteReg(R11, 0x00000000)
T56A8 000:417.028 - 0.004ms returns 0
T56A8 000:417.032 JLINK_WriteReg(R12, 0x00000000)
T56A8 000:417.035 - 0.004ms returns 0
T56A8 000:417.038 JLINK_WriteReg(R13 (SP), 0x20001000)
T56A8 000:417.042 - 0.004ms returns 0
T56A8 000:417.045 JLINK_WriteReg(R14, 0x20000001)
T56A8 000:417.048 - 0.004ms returns 0
T56A8 000:417.052 JLINK_WriteReg(R15 (PC), 0x200000D8)
T56A8 000:417.055 - 0.004ms returns 0
T56A8 000:417.058 JLINK_WriteReg(XPSR, 0x01000000)
T56A8 000:417.061 - 0.004ms returns 0
T56A8 000:417.065 JLINK_WriteReg(MSP, 0x20001000)
T56A8 000:417.068 - 0.004ms returns 0
T56A8 000:417.071 JLINK_WriteReg(PSP, 0x20001000)
T56A8 000:417.074 - 0.004ms returns 0
T56A8 000:417.078 JLINK_WriteReg(CFBP, 0x00000000)
T56A8 000:417.081 - 0.004ms returns 0
T56A8 000:417.084 JLINK_SetBPEx(Addr = 0x20000000, Type = 0xFFFFFFF2)
T56A8 000:417.088 - 0.005ms returns 0x0000000C
T56A8 000:417.091 JLINK_Go()
T56A8 000:417.099   CPU_ReadMem(4 bytes @ 0xE0001000)
T56A8 000:418.984 - 1.896ms
T56A8 000:418.991 JLINK_IsHalted()
T56A8 000:419.182 - 0.192ms returns FALSE
T56A8 000:419.186 JLINK_HasError()
T56A8 000:421.548 JLINK_IsHalted()
T56A8 000:421.761 - 0.219ms returns FALSE
T56A8 000:421.772 JLINK_HasError()
T56A8 000:423.580 JLINK_IsHalted()
T56A8 000:423.787 - 0.210ms returns FALSE
T56A8 000:423.794 JLINK_HasError()
T56A8 000:425.551 JLINK_IsHalted()
T56A8 000:425.808 - 0.261ms returns FALSE
T56A8 000:425.816 JLINK_HasError()
T56A8 000:427.544 JLINK_IsHalted()
T56A8 000:427.727 - 0.185ms returns FALSE
T56A8 000:427.732 JLINK_HasError()
T56A8 000:429.543 JLINK_IsHalted()
T56A8 000:429.731 - 0.189ms returns FALSE
T56A8 000:429.735 JLINK_HasError()
T56A8 000:431.553 JLINK_IsHalted()
T56A8 000:431.729 - 0.178ms returns FALSE
T56A8 000:431.735 JLINK_HasError()
T56A8 000:433.546 JLINK_IsHalted()
T56A8 000:435.279   CPU_ReadMem(2 bytes @ 0x20000000)
T56A8 000:435.534 - 1.990ms returns TRUE
T56A8 000:435.539 JLINK_ReadReg(R15 (PC))
T56A8 000:435.545 - 0.007ms returns 0x20000000
T56A8 000:435.549 JLINK_ClrBPEx(BPHandle = 0x0000000C)
T56A8 000:435.553 - 0.005ms returns 0x00
T56A8 000:435.556 JLINK_ReadReg(R0)
T56A8 000:435.559 - 0.004ms returns 0x00000000
T56A8 000:436.070 JLINK_WriteMem(0x2000013C, 0x2C4 Bytes, ...)
T56A8 000:436.078   Data:  B8 EE C0 1A DF ED 12 1A B4 EE E1 1A F1 EE 10 FA ...
T56A8 000:436.088   CPU_WriteMem(708 bytes @ 0x2000013C)
T56A8 000:438.615 - 2.552ms returns 0x2C4
T56A8 000:438.626 JLINK_WriteMem(0x20000400, 0x13C Bytes, ...)
T56A8 000:438.630   Data:  D1 F8 90 10 40 1A 00 EE 10 0A B8 EE C0 0A 3B 48 ...
T56A8 000:438.639   CPU_WriteMem(316 bytes @ 0x20000400)
T56A8 000:440.021 - 1.401ms returns 0x13C
T56A8 000:440.032 JLINK_HasError()
T56A8 000:440.036 JLINK_WriteReg(R0, 0x08002000)
T56A8 000:440.050 - 0.015ms returns 0
T56A8 000:440.055 JLINK_WriteReg(R1, 0x00000400)
T56A8 000:440.059 - 0.005ms returns 0
T56A8 000:440.062 JLINK_WriteReg(R2, 0x2000013C)
T56A8 000:440.065 - 0.004ms returns 0
T56A8 000:440.069 JLINK_WriteReg(R3, 0x00000000)
T56A8 000:440.082 - 0.014ms returns 0
T56A8 000:440.086 JLINK_WriteReg(R4, 0x00000000)
T56A8 000:440.089 - 0.004ms returns 0
T56A8 000:440.092 JLINK_WriteReg(R5, 0x00000000)
T56A8 000:440.095 - 0.004ms returns 0
